T2BA8 000:346.059   SEGGER J-Link V7.96c Log File
T2BA8 000:346.325   DLL Compiled: Apr  2 2024 12:30:42
T2BA8 000:346.338   Logging started @ 2025-04-11 01:46
T2BA8 000:346.352   Process: D:\LenovoSoftstore\KEIK5MDK\UV4\UV4.exe
T2BA8 000:346.368 - 346.365ms
T2BA8 000:346.389 JLINK_SetWarnOutHandler(...)
T2BA8 000:346.402 - 0.016ms
T2BA8 000:346.417 JLINK_OpenEx(...)
T2BA8 000:350.522   Firmware: J-Link ARM-OB STM32 compiled Aug 22 2012 19:52:04
T2BA8 000:352.124   Firmware: J-Link ARM-OB STM32 compiled Aug 22 2012 19:52:04
T2BA8 000:354.441   Hardware: V7.00
T2BA8 000:354.494   S/N: 20171214
T2BA8 000:354.518   OEM: SEGGER
T2BA8 000:354.543   Feature(s): RDI,FlashDL,FlashBP,JFlash,GDBFull
T2BA8 000:355.144   Bootloader: (Could not read)
T2BA8 000:356.075   TELNET listener socket opened on port 19021
T2BA8 000:356.244   WEBSRV WEBSRV_Init(): Starting webserver thread(s)
T2BA8 000:356.562   WEBSRV Webserver running on local port 19080
T2BA8 000:357.172   Looking for J-Link GUI Server exe at: D:\LenovoSoftstore\KEIK5MDK\ARM\Segger\JLinkGUIServer.exe
T2BA8 000:357.422   Looking for J-Link GUI Server exe at: C:\Program Files\SEGGER\JLink_V796c\JLinkGUIServer.exe
T2BA8 000:663.979   Failed to connect to J-Link GUI Server.
T2BA8 000:664.146 - 317.694ms returns "O.K."
T2BA8 000:664.237 JLINK_GetEmuCaps()
T2BA8 000:664.284 - 0.038ms returns 0x88EA5833
T2BA8 000:664.352 JLINK_TIF_GetAvailable(...)
T2BA8 000:664.796 - 0.441ms
T2BA8 000:665.076 JLINK_SetErrorOutHandler(...)
T2BA8 000:665.112 - 0.037ms
T2BA8 000:665.208 JLINK_ExecCommand("ProjectFile = "E:\99-±ÏÉè\00-imu\RoboMaster_slave_device-main\USER\JLinkSettings.ini"", ...). 
T2BA8 000:689.787   Ref file found at: D:\LenovoSoftstore\KEIK5MDK\ARM\Segger\JLinkDevices.ref
T2BA8 000:689.953   REF file references invalid XML file: C:\Program Files\SEGGER\JLink_V796c\JLinkDevices.xml
T2BA8 000:691.671   Device "ARM7" selected.
T2BA8 000:692.048 - 26.851ms returns 0x00
T2BA8 000:692.082 JLINK_ExecCommand("Device = STM32F427IITx", ...). 
T2BA8 000:692.965   Flash bank @ 0x90000000: SFL: Parsing sectorization info from ELF file
T2BA8 000:692.981     FlashDevice.SectorInfo[0]: .SectorSize = 0x00010000, .SectorStartAddr = 0x00000000
T2BA8 000:696.955   Device "STM32F427II" selected.
T2BA8 000:697.185 - 5.092ms returns 0x00
T2BA8 000:697.197 JLINK_ExecCommand("DisableConnectionTimeout", ...). 
T2BA8 000:697.205 - 0.001ms returns 0x01
T2BA8 000:697.212 JLINK_GetHardwareVersion()
T2BA8 000:697.219 - 0.005ms returns 70000
T2BA8 000:697.225 JLINK_GetDLLVersion()
T2BA8 000:697.230 - 0.005ms returns 79603
T2BA8 000:697.236 JLINK_GetOEMString(...)
T2BA8 000:697.247 JLINK_GetFirmwareString(...)
T2BA8 000:697.252 - 0.005ms
T2BA8 000:697.269 JLINK_GetDLLVersion()
T2BA8 000:697.274 - 0.005ms returns 79603
T2BA8 000:697.280 JLINK_GetCompileDateTime()
T2BA8 000:697.284 - 0.004ms
T2BA8 000:697.436 JLINK_GetFirmwareString(...)
T2BA8 000:697.451 - 0.014ms
T2BA8 000:697.468 JLINK_GetHardwareVersion()
T2BA8 000:697.473 - 0.005ms returns 70000
T2BA8 000:697.482 JLINK_GetSN()
T2BA8 000:697.487 - 0.005ms returns 20171214
T2BA8 000:697.495 JLINK_GetOEMString(...)
T2BA8 000:697.509 JLINK_TIF_Select(JLINKARM_TIF_SWD)
T2BA8 000:698.541 - 1.032ms returns 0x00
T2BA8 000:698.559 JLINK_HasError()
T2BA8 000:698.571 JLINK_SetSpeed(500)
T2BA8 000:698.734 - 0.163ms
T2BA8 000:698.753 JLINK_GetId()
T2BA8 000:699.089   InitTarget() start
T2BA8 000:699.108    J-Link Script File: Executing InitTarget()
T2BA8 000:699.375   SWD selected. Executing JTAG -> SWD switching sequence.
T2BA8 000:706.021   DAP initialized successfully.
T2BA8 000:728.075   InitTarget() end - Took 28.9ms
T2BA8 000:730.083   Found SW-DP with ID 0x2BA01477
T2BA8 000:737.251   Old FW that does not support reading DPIDR via DAP jobs
T2BA8 000:744.994   DPv0 detected
T2BA8 000:745.087   CoreSight SoC-400 or earlier
T2BA8 000:745.137   Scanning AP map to find all available APs
T2BA8 000:749.371   AP[1]: Stopped AP scan as end of AP map has been reached
T2BA8 000:749.421   AP[0]: AHB-AP (IDR: 0x24770011)
T2BA8 000:749.554   Iterating through AP map to find AHB-AP to use
T2BA8 000:756.692   AP[0]: Core found
T2BA8 000:756.753   AP[0]: AHB-AP ROM base: 0xE00FF000
T2BA8 000:760.262   CPUID register: 0x410FC241. Implementer code: 0x41 (ARM)
T2BA8 000:760.375   Found Cortex-M4 r0p1, Little endian.
T2BA8 000:761.076   -- Max. mem block: 0x00002C18
T2BA8 000:761.822   CPU_ReadMem(4 bytes @ 0xE000EDF0)
T2BA8 000:763.072   CPU_ReadMem(4 bytes @ 0xE0002000)
T2BA8 000:764.416   FPUnit: 6 code (BP) slots and 2 literal slots
T2BA8 000:764.442   CPU_ReadMem(4 bytes @ 0xE000EDFC)
T2BA8 000:765.767   CPU_WriteMem(4 bytes @ 0xE000EDFC)
T2BA8 000:767.065   CPU_ReadMem(4 bytes @ 0xE0001000)
T2BA8 000:768.457   CPU_WriteMem(4 bytes @ 0xE0001000)
T2BA8 000:769.987   CPU_ReadMem(4 bytes @ 0xE000ED88)
T2BA8 000:771.598   CPU_WriteMem(4 bytes @ 0xE000ED88)
T2BA8 000:773.280   CPU_ReadMem(4 bytes @ 0xE000ED88)
T2BA8 000:774.823   CPU_WriteMem(4 bytes @ 0xE000ED88)
T2BA8 000:776.416   CoreSight components:
T2BA8 000:776.507   ROMTbl[0] @ E00FF000
T2BA8 000:776.551   CPU_ReadMem(64 bytes @ 0xE00FF000)
T2BA8 000:780.342   CPU_ReadMem(32 bytes @ 0xE000EFE0)
T2BA8 000:782.919   [0][0]: E000E000 CID B105E00D PID 000BB00C SCS-M7
T2BA8 000:782.994   CPU_ReadMem(32 bytes @ 0xE0001FE0)
T2BA8 000:785.628   [0][1]: E0001000 CID B105E00D PID 003BB002 DWT
T2BA8 000:785.726   CPU_ReadMem(32 bytes @ 0xE0002FE0)
T2BA8 000:788.394   [0][2]: E0002000 CID B105E00D PID 002BB003 FPB
T2BA8 000:788.504   CPU_ReadMem(32 bytes @ 0xE0000FE0)
T2BA8 000:791.086   [0][3]: E0000000 CID B105E00D PID 003BB001 ITM
T2BA8 000:791.178   CPU_ReadMem(32 bytes @ 0xE0040FE0)
T2BA8 000:793.885   [0][4]: E0040000 CID B105900D PID 000BB9A1 TPIU
T2BA8 000:793.960   CPU_ReadMem(32 bytes @ 0xE0041FE0)
T2BA8 000:796.580   [0][5]: E0041000 CID B105900D PID 000BB925 ETM
T2BA8 000:797.854 - 99.096ms returns 0x2BA01477
T2BA8 000:797.963 JLINK_GetDLLVersion()
T2BA8 000:797.991 - 0.026ms returns 79603
T2BA8 000:798.164 JLINK_CORE_GetFound()
T2BA8 000:798.193 - 0.029ms returns 0xE0000FF
T2BA8 000:798.225 JLINK_GetDebugInfo(0x100 = JLINKARM_ROM_TABLE_ADDR_INDEX)
T2BA8 000:798.256   Value=0xE00FF000
T2BA8 000:798.292 - 0.069ms returns 0
T2BA8 000:798.383 JLINK_GetDebugInfo(0x100 = JLINKARM_ROM_TABLE_ADDR_INDEX)
T2BA8 000:798.407   Value=0xE00FF000
T2BA8 000:798.443 - 0.061ms returns 0
T2BA8 000:798.472 JLINK_GetDebugInfo(0x101 = JLINKARM_DEBUG_INFO_ETM_ADDR_INDEX)
T2BA8 000:798.496   Value=0xE0041000
T2BA8 000:798.531 - 0.061ms returns 0
T2BA8 000:798.563 JLINK_ReadMemEx(0xE0041FD0, 0x20 Bytes, Flags = 0x02000004)
T2BA8 000:798.632   CPU_ReadMem(32 bytes @ 0xE0041FD0)
T2BA8 000:801.239   Data:  04 00 00 00 00 00 00 00 00 00 00 00 00 00 00 00 ...
T2BA8 000:801.301 - 2.738ms returns 32 (0x20)
T2BA8 000:801.332 JLINK_GetDebugInfo(0x102 = JLINKARM_DEBUG_INFO_MTB_ADDR_INDEX)
T2BA8 000:801.351   Value=0x00000000
T2BA8 000:801.378 - 0.047ms returns 0
T2BA8 000:801.399 JLINK_GetDebugInfo(0x103 = JLINKARM_DEBUG_INFO_TPIU_ADDR_INDEX)
T2BA8 000:801.417   Value=0xE0040000
T2BA8 000:801.443 - 0.044ms returns 0
T2BA8 000:801.464 JLINK_GetDebugInfo(0x104 = JLINKARM_DEBUG_INFO_ITM_ADDR_INDEX)
T2BA8 000:801.481   Value=0xE0000000
T2BA8 000:801.505 - 0.042ms returns 0
T2BA8 000:801.525 JLINK_GetDebugInfo(0x105 = JLINKARM_DEBUG_INFO_DWT_ADDR_INDEX)
T2BA8 000:801.541   Value=0xE0001000
T2BA8 000:801.564 - 0.040ms returns 0
T2BA8 000:801.583 JLINK_GetDebugInfo(0x106 = JLINKARM_DEBUG_INFO_FPB_ADDR_INDEX)
T2BA8 000:801.599   Value=0xE0002000
T2BA8 000:801.622 - 0.039ms returns 0
T2BA8 000:801.641 JLINK_GetDebugInfo(0x107 = JLINKARM_DEBUG_INFO_NVIC_ADDR_INDEX)
T2BA8 000:801.656   Value=0xE000E000
T2BA8 000:801.679 - 0.039ms returns 0
T2BA8 000:801.698 JLINK_GetDebugInfo(0x10C = JLINKARM_DEBUG_INFO_DBG_ADDR_INDEX)
T2BA8 000:801.714   Value=0xE000EDF0
T2BA8 000:801.737 - 0.039ms returns 0
T2BA8 000:801.757 JLINK_GetDebugInfo(0x01 = Unknown)
T2BA8 000:801.772   Value=0x00000001
T2BA8 000:801.796 - 0.040ms returns 0
T2BA8 000:801.816 JLINK_ReadMemU32(0xE000ED00, 0x1 Items)
T2BA8 000:801.871   CPU_ReadMem(4 bytes @ 0xE000ED00)
T2BA8 000:803.182   Data:  41 C2 0F 41
T2BA8 000:803.229   Debug reg: CPUID
T2BA8 000:803.253 - 1.437ms returns 1 (0x1)
T2BA8 000:803.279 JLINK_GetDebugInfo(0x10F = JLINKARM_DEBUG_INFO_HAS_CORTEX_M_SECURITY_EXT_INDEX)
T2BA8 000:803.295   Value=0x00000000
T2BA8 000:803.317 - 0.039ms returns 0
T2BA8 000:803.336 JLINK_HasError()
T2BA8 000:803.357 JLINK_SetResetType(JLINKARM_CM3_RESET_TYPE_NORMAL)
T2BA8 000:803.373 - 0.016ms returns JLINKARM_CM3_RESET_TYPE_NORMAL
T2BA8 000:803.390 JLINK_Reset()
T2BA8 000:803.424   CPU is running
T2BA8 000:803.449   CPU_WriteMem(4 bytes @ 0xE000EDF0)
T2BA8 000:804.821   CPU is running
T2BA8 000:804.851   CPU_WriteMem(4 bytes @ 0xE000EDFC)
T2BA8 000:806.189   Reset: Halt core after reset via DEMCR.VC_CORERESET.
T2BA8 000:806.952   Reset: Reset device via AIRCR.SYSRESETREQ.
T2BA8 000:806.995   CPU is running
T2BA8 000:807.032   CPU_WriteMem(4 bytes @ 0xE000ED0C)
T2BA8 000:862.286   CPU_ReadMem(4 bytes @ 0xE000EDF0)
T2BA8 000:863.660   CPU_ReadMem(4 bytes @ 0xE000EDF0)
T2BA8 000:876.522   CPU_WriteMem(4 bytes @ 0xE000EDFC)
T2BA8 000:883.207   CPU_ReadMem(4 bytes @ 0xE000EDF0)
T2BA8 000:896.702   CPU_WriteMem(4 bytes @ 0xE0002000)
T2BA8 000:898.218   CPU_ReadMem(4 bytes @ 0xE000EDFC)
T2BA8 000:899.783   CPU_ReadMem(4 bytes @ 0xE0001000)
T2BA8 000:901.479 - 98.086ms
T2BA8 000:901.572 JLINK_HasError()
T2BA8 000:901.616 JLINK_ReadReg(R15 (PC))
T2BA8 000:901.653 - 0.043ms returns 0x0800026C
T2BA8 000:901.684 JLINK_ReadReg(XPSR)
T2BA8 000:901.710 - 0.026ms returns 0x01000000
T2BA8 000:901.741 JLINK_Halt()
T2BA8 000:901.766 - 0.024ms returns 0x00
T2BA8 000:901.797 JLINK_ReadMemU32(0xE000EDF0, 0x1 Items)
T2BA8 000:901.840   CPU_ReadMem(4 bytes @ 0xE000EDF0)
T2BA8 000:903.493   Data:  03 00 03 00
T2BA8 000:903.551   Debug reg: DHCSR
T2BA8 000:903.582 - 1.784ms returns 1 (0x1)
T2BA8 000:903.645 JLINK_WriteU32_64(0xE000EDF0, 0xA05F0003)
T2BA8 000:903.668   Debug reg: DHCSR
T2BA8 000:904.537   CPU_WriteMem(4 bytes @ 0xE000EDF0)
T2BA8 000:905.957 - 2.334ms returns 0 (0x00000000)
T2BA8 000:906.009 JLINK_WriteU32_64(0xE000EDFC, 0x01000000)
T2BA8 000:906.027   Debug reg: DEMCR
T2BA8 000:906.068   CPU_WriteMem(4 bytes @ 0xE000EDFC)
T2BA8 000:907.456 - 1.446ms returns 0 (0x00000000)
T2BA8 000:907.572 JLINK_GetHWStatus(...)
T2BA8 000:907.790 - 0.217ms returns 0
T2BA8 000:907.848 JLINK_GetNumBPUnits(Type = 0xFFFFFF00)
T2BA8 000:907.865 - 0.017ms returns 0x06
T2BA8 000:907.882 JLINK_GetNumBPUnits(Type = 0xF0)
T2BA8 000:907.896 - 0.014ms returns 0x2000
T2BA8 000:907.912 JLINK_GetNumWPUnits()
T2BA8 000:907.926 - 0.013ms returns 4
T2BA8 000:907.960 JLINK_GetSpeed()
T2BA8 000:907.974 - 0.014ms returns 500
T2BA8 000:908.002 JLINK_ReadMemU32(0xE000E004, 0x1 Items)
T2BA8 000:908.028   CPU_ReadMem(4 bytes @ 0xE000E004)
T2BA8 000:909.279   Data:  02 00 00 00
T2BA8 000:909.325 - 1.323ms returns 1 (0x1)
T2BA8 000:909.348 JLINK_ReadMemU32(0xE000E004, 0x1 Items)
T2BA8 000:909.376   CPU_ReadMem(4 bytes @ 0xE000E004)
T2BA8 000:910.584   Data:  02 00 00 00
T2BA8 000:910.620 - 1.272ms returns 1 (0x1)
T2BA8 000:910.639 JLINK_WriteMemEx(0xE0001000, 0x0000001C Bytes, Flags = 0x02000004)
T2BA8 000:910.652   Data:  01 00 00 00 00 00 00 00 00 00 00 00 00 00 00 00 ...
T2BA8 000:910.681   CPU_WriteMem(28 bytes @ 0xE0001000)
T2BA8 000:913.110 - 2.471ms returns 0x1C
T2BA8 000:913.130 JLINK_HasError()
T2BA8 000:913.146 JLINK_ReadReg(R15 (PC))
T2BA8 000:913.162 - 0.015ms returns 0x0800026C
T2BA8 000:913.176 JLINK_ReadReg(XPSR)
T2BA8 000:913.189 - 0.013ms returns 0x01000000
T2BA8 000:917.716 JLINK_ReadMemEx(0xE0001004, 0x4 Bytes, Flags = 0x02000000)
T2BA8 000:917.750   Data:  00 00 00 00
T2BA8 000:917.769   Debug reg: DWT_CYCCNT
T2BA8 000:917.786 - 0.070ms returns 4 (0x4)
T2BA8 001:000.302 JLINK_HasError()
T2BA8 001:000.348 JLINK_SetResetType(JLINKARM_CM3_RESET_TYPE_NORMAL)
T2BA8 001:000.362 - 0.014ms returns JLINKARM_CM3_RESET_TYPE_NORMAL
T2BA8 001:000.375 JLINK_Reset()
T2BA8 001:000.404   CPU_WriteMem(4 bytes @ 0xE000EDF0)
T2BA8 001:001.807   CPU_WriteMem(4 bytes @ 0xE000EDFC)
T2BA8 001:003.189   Reset: Halt core after reset via DEMCR.VC_CORERESET.
T2BA8 001:003.909   Reset: Reset device via AIRCR.SYSRESETREQ.
T2BA8 001:003.935   CPU_WriteMem(4 bytes @ 0xE000ED0C)
T2BA8 001:059.513   CPU_ReadMem(4 bytes @ 0xE000EDF0)
T2BA8 001:061.208   CPU_ReadMem(4 bytes @ 0xE000EDF0)
T2BA8 001:062.818   CPU_WriteMem(4 bytes @ 0xE000EDFC)
T2BA8 001:069.808   CPU_ReadMem(4 bytes @ 0xE000EDF0)
T2BA8 001:082.738   CPU_WriteMem(4 bytes @ 0xE0002000)
T2BA8 001:084.459   CPU_ReadMem(4 bytes @ 0xE000EDFC)
T2BA8 001:086.009   CPU_ReadMem(4 bytes @ 0xE0001000)
T2BA8 001:087.481 - 87.102ms
T2BA8 001:087.733 JLINK_HasError()
T2BA8 001:087.775 JLINK_ReadReg(R15 (PC))
T2BA8 001:087.819 - 0.042ms returns 0x0800026C
T2BA8 001:087.852 JLINK_ReadReg(XPSR)
T2BA8 001:087.882 - 0.029ms returns 0x01000000
T2BA8 001:089.302 JLINK_ReadMemEx(0x0800026C, 0x3C Bytes, Flags = 0x02000000)
T2BA8 001:089.370   CPU_ReadMem(128 bytes @ 0x08000240)
T2BA8 001:095.662    -- Updating C cache (128 bytes @ 0x08000240)
T2BA8 001:095.728    -- Read from C cache (60 bytes @ 0x0800026C)
T2BA8 001:095.759   Data:  09 48 80 47 09 48 00 47 FE E7 FE E7 FE E7 FE E7 ...
T2BA8 001:095.787 - 6.487ms returns 60 (0x3C)
T2BA8 001:095.817 JLINK_ReadMemEx(0x0800026C, 0x2 Bytes, Flags = 0x02000000)
T2BA8 001:095.841    -- Read from C cache (2 bytes @ 0x0800026C)
T2BA8 001:095.866   Data:  09 48
T2BA8 001:095.893 - 0.076ms returns 2 (0x2)
T2BA8 001:096.060 JLINK_ReadMemEx(0x0800026E, 0x2 Bytes, Flags = 0x02000000)
T2BA8 001:096.082    -- Read from C cache (2 bytes @ 0x0800026E)
T2BA8 001:096.107   Data:  80 47
T2BA8 001:096.135 - 0.075ms returns 2 (0x2)
T2BA8 001:096.184 JLINK_ReadMemEx(0x0800026E, 0x2 Bytes, Flags = 0x02000000)
T2BA8 001:096.203    -- Read from C cache (2 bytes @ 0x0800026E)
T2BA8 001:096.228   Data:  80 47
T2BA8 001:096.254 - 0.070ms returns 2 (0x2)
T2BA8 001:096.275 JLINK_ReadMemEx(0x08000270, 0x3C Bytes, Flags = 0x02000000)
T2BA8 001:096.294    -- Read from C cache (60 bytes @ 0x08000270)
T2BA8 001:096.322   Data:  09 48 00 47 FE E7 FE E7 FE E7 FE E7 FE E7 FE E7 ...
T2BA8 001:096.347 - 0.072ms returns 60 (0x3C)
T2BA8 001:096.368 JLINK_ReadMemEx(0x08000270, 0x2 Bytes, Flags = 0x02000000)
T2BA8 001:096.386    -- Read from C cache (2 bytes @ 0x08000270)
T2BA8 001:096.411   Data:  09 48
T2BA8 001:096.437 - 0.069ms returns 2 (0x2)
T2BA8 002:401.116 JLINK_HasError()
T2BA8 002:401.160 JLINK_ReadReg(R0)
T2BA8 002:402.464 - 1.296ms returns 0x00000000
T2BA8 002:402.501 JLINK_ReadReg(R1)
T2BA8 002:402.507 - 0.005ms returns 0x00000000
T2BA8 002:402.512 JLINK_ReadReg(R2)
T2BA8 002:402.517 - 0.005ms returns 0x00000000
T2BA8 002:402.522 JLINK_ReadReg(R3)
T2BA8 002:402.527 - 0.004ms returns 0x00000000
T2BA8 002:402.532 JLINK_ReadReg(R4)
T2BA8 002:402.538 - 0.004ms returns 0x00000000
T2BA8 002:402.543 JLINK_ReadReg(R5)
T2BA8 002:402.547 - 0.004ms returns 0x00000000
T2BA8 002:402.561 JLINK_ReadReg(R6)
T2BA8 002:402.566 - 0.004ms returns 0x00000000
T2BA8 002:402.571 JLINK_ReadReg(R7)
T2BA8 002:402.576 - 0.004ms returns 0x00000000
T2BA8 002:402.581 JLINK_ReadReg(R8)
T2BA8 002:402.586 - 0.004ms returns 0x00000000
T2BA8 002:402.591 JLINK_ReadReg(R9)
T2BA8 002:402.596 - 0.004ms returns 0x00000000
T2BA8 002:402.601 JLINK_ReadReg(R10)
T2BA8 002:402.606 - 0.004ms returns 0x00000000
T2BA8 002:402.611 JLINK_ReadReg(R11)
T2BA8 002:402.616 - 0.004ms returns 0x00000000
T2BA8 002:402.621 JLINK_ReadReg(R12)
T2BA8 002:402.626 - 0.005ms returns 0x00000000
T2BA8 002:402.631 JLINK_ReadReg(R13 (SP))
T2BA8 002:402.636 - 0.005ms returns 0x20001178
T2BA8 002:402.641 JLINK_ReadReg(R14)
T2BA8 002:402.646 - 0.004ms returns 0xFFFFFFFF
T2BA8 002:402.652 JLINK_ReadReg(R15 (PC))
T2BA8 002:402.656 - 0.004ms returns 0x0800026C
T2BA8 002:402.662 JLINK_ReadReg(XPSR)
T2BA8 002:402.666 - 0.004ms returns 0x01000000
T2BA8 002:402.671 JLINK_ReadReg(MSP)
T2BA8 002:402.676 - 0.004ms returns 0x20001178
T2BA8 002:402.681 JLINK_ReadReg(PSP)
T2BA8 002:402.723 - 0.041ms returns 0x00000000
T2BA8 002:402.730 JLINK_ReadReg(CFBP)
T2BA8 002:402.735 - 0.004ms returns 0x00000000
T2BA8 002:402.741 JLINK_ReadReg(FPSCR)
T2BA8 002:420.628 - 17.885ms returns 0x00000000
T2BA8 002:420.673 JLINK_ReadReg(FPS0)
T2BA8 002:420.691 - 0.017ms returns 0x00000000
T2BA8 002:420.705 JLINK_ReadReg(FPS1)
T2BA8 002:420.718 - 0.012ms returns 0x00000000
T2BA8 002:420.732 JLINK_ReadReg(FPS2)
T2BA8 002:420.744 - 0.012ms returns 0x00000000
T2BA8 002:420.758 JLINK_ReadReg(FPS3)
T2BA8 002:420.771 - 0.012ms returns 0x00000000
T2BA8 002:420.785 JLINK_ReadReg(FPS4)
T2BA8 002:420.797 - 0.012ms returns 0x00000000
T2BA8 002:420.811 JLINK_ReadReg(FPS5)
T2BA8 002:420.824 - 0.012ms returns 0x00000000
T2BA8 002:420.837 JLINK_ReadReg(FPS6)
T2BA8 002:420.849 - 0.012ms returns 0x00000000
T2BA8 002:420.863 JLINK_ReadReg(FPS7)
T2BA8 002:420.875 - 0.012ms returns 0x00000000
T2BA8 002:420.889 JLINK_ReadReg(FPS8)
T2BA8 002:420.901 - 0.012ms returns 0x00000000
T2BA8 002:420.915 JLINK_ReadReg(FPS9)
T2BA8 002:420.928 - 0.012ms returns 0x00000000
T2BA8 002:420.942 JLINK_ReadReg(FPS10)
T2BA8 002:420.954 - 0.012ms returns 0x00000000
T2BA8 002:420.968 JLINK_ReadReg(FPS11)
T2BA8 002:421.041 - 0.072ms returns 0x00000000
T2BA8 002:421.056 JLINK_ReadReg(FPS12)
T2BA8 002:421.068 - 0.012ms returns 0x00000000
T2BA8 002:421.082 JLINK_ReadReg(FPS13)
T2BA8 002:421.095 - 0.012ms returns 0x00000000
T2BA8 002:421.194 JLINK_ReadReg(FPS14)
T2BA8 002:421.215 - 0.021ms returns 0x00000000
T2BA8 002:421.230 JLINK_ReadReg(FPS15)
T2BA8 002:421.243 - 0.012ms returns 0x00000000
T2BA8 002:421.257 JLINK_ReadReg(FPS16)
T2BA8 002:421.270 - 0.012ms returns 0x00000000
T2BA8 002:421.283 JLINK_ReadReg(FPS17)
T2BA8 002:421.296 - 0.012ms returns 0x00000000
T2BA8 002:421.310 JLINK_ReadReg(FPS18)
T2BA8 002:421.322 - 0.012ms returns 0x00000000
T2BA8 002:421.336 JLINK_ReadReg(FPS19)
T2BA8 002:421.348 - 0.012ms returns 0x00000000
T2BA8 002:421.362 JLINK_ReadReg(FPS20)
T2BA8 002:421.375 - 0.012ms returns 0x00000000
T2BA8 002:421.389 JLINK_ReadReg(FPS21)
T2BA8 002:421.402 - 0.012ms returns 0x00000000
T2BA8 002:421.416 JLINK_ReadReg(FPS22)
T2BA8 002:421.428 - 0.012ms returns 0x00000000
T2BA8 002:421.442 JLINK_ReadReg(FPS23)
T2BA8 002:421.455 - 0.012ms returns 0x00000000
T2BA8 002:421.469 JLINK_ReadReg(FPS24)
T2BA8 002:421.481 - 0.012ms returns 0x00000000
T2BA8 002:421.495 JLINK_ReadReg(FPS25)
T2BA8 002:421.508 - 0.012ms returns 0x00000000
T2BA8 002:421.521 JLINK_ReadReg(FPS26)
T2BA8 002:421.534 - 0.012ms returns 0x00000000
T2BA8 002:421.547 JLINK_ReadReg(FPS27)
T2BA8 002:421.560 - 0.012ms returns 0x00000000
T2BA8 002:421.573 JLINK_ReadReg(FPS28)
T2BA8 002:421.586 - 0.012ms returns 0x00000000
T2BA8 002:421.599 JLINK_ReadReg(FPS29)
T2BA8 002:421.612 - 0.012ms returns 0x00000000
T2BA8 002:421.625 JLINK_ReadReg(FPS30)
T2BA8 002:421.638 - 0.012ms returns 0x00000000
T2BA8 002:421.652 JLINK_ReadReg(FPS31)
T2BA8 002:421.665 - 0.012ms returns 0x00000000
T2BA8 002:435.479 JLINK_ReadMemEx(0x20000489, 0x20 Bytes, Flags = 0x02000000)
T2BA8 002:435.549   CPU_ReadMem(64 bytes @ 0x20000480)
T2BA8 002:439.073    -- Updating C cache (64 bytes @ 0x20000480)
T2BA8 002:439.117    -- Read from C cache (32 bytes @ 0x20000489)
T2BA8 002:439.260   Data:  5A A5 26 00 F0 83 A0 DE FF A5 01 88 03 B0 00 00 ...
T2BA8 002:439.281 - 3.803ms returns 32 (0x20)
T2BA8 002:446.924 JLINK_ReadMemEx(0x20000184, 0x4 Bytes, Flags = 0x02000000)
T2BA8 002:446.965   CPU_ReadMem(64 bytes @ 0x20000180)
T2BA8 002:450.470    -- Updating C cache (64 bytes @ 0x20000180)
T2BA8 002:450.489    -- Read from C cache (4 bytes @ 0x20000184)
T2BA8 002:450.506   Data:  EB 31 9B 43
T2BA8 002:450.522 - 3.598ms returns 4 (0x4)
T2BA8 002:450.710 JLINK_ReadMemEx(0x20000184, 0x4 Bytes, Flags = 0x02000000)
T2BA8 002:450.726    -- Read from C cache (4 bytes @ 0x20000184)
T2BA8 002:450.741   Data:  EB 31 9B 43
T2BA8 002:450.756 - 0.046ms returns 4 (0x4)
T2BA8 002:450.797 JLINK_ReadMemEx(0x20000184, 0x4 Bytes, Flags = 0x02000000)
T2BA8 002:450.809    -- Read from C cache (4 bytes @ 0x20000184)
T2BA8 002:450.844   Data:  EB 31 9B 43
T2BA8 002:450.859 - 0.062ms returns 4 (0x4)
T2BA8 002:458.030 JLINK_ReadMemEx(0x20000188, 0x4 Bytes, Flags = 0x02000000)
T2BA8 002:458.066    -- Read from C cache (4 bytes @ 0x20000188)
T2BA8 002:458.080   Data:  D7 23 6C 43
T2BA8 002:458.094 - 0.064ms returns 4 (0x4)
T2BA8 002:458.233 JLINK_ReadMemEx(0x20000188, 0x4 Bytes, Flags = 0x02000000)
T2BA8 002:458.244    -- Read from C cache (4 bytes @ 0x20000188)
T2BA8 002:458.257   Data:  D7 23 6C 43
T2BA8 002:458.270 - 0.037ms returns 4 (0x4)
T2BA8 002:458.301 JLINK_ReadMemEx(0x20000188, 0x4 Bytes, Flags = 0x02000000)
T2BA8 002:458.311    -- Read from C cache (4 bytes @ 0x20000188)
T2BA8 002:458.324   Data:  D7 23 6C 43
T2BA8 002:458.337 - 0.036ms returns 4 (0x4)
T2BA8 002:466.038 JLINK_ReadMemEx(0x2000018C, 0x4 Bytes, Flags = 0x02000000)
T2BA8 002:466.078    -- Read from C cache (4 bytes @ 0x2000018C)
T2BA8 002:466.094   Data:  CD 8C 2A C3
T2BA8 002:466.112 - 0.073ms returns 4 (0x4)
T2BA8 002:466.274 JLINK_ReadMemEx(0x2000018C, 0x4 Bytes, Flags = 0x02000000)
T2BA8 002:466.287    -- Read from C cache (4 bytes @ 0x2000018C)
T2BA8 002:466.302   Data:  CD 8C 2A C3
T2BA8 002:466.317 - 0.043ms returns 4 (0x4)
T2BA8 002:466.351 JLINK_ReadMemEx(0x2000018C, 0x4 Bytes, Flags = 0x02000000)
T2BA8 002:466.363    -- Read from C cache (4 bytes @ 0x2000018C)
T2BA8 002:466.378   Data:  CD 8C 2A C3
T2BA8 002:466.393 - 0.042ms returns 4 (0x4)
T2BA8 002:473.331 JLINK_ReadMemEx(0x2000016C, 0x1 Bytes, Flags = 0x02000000)
T2BA8 002:473.387   CPU_ReadMem(64 bytes @ 0x20000140)
T2BA8 002:477.227    -- Updating C cache (64 bytes @ 0x20000140)
T2BA8 002:477.261    -- Read from C cache (1 bytes @ 0x2000016C)
T2BA8 002:477.277   Data:  00
T2BA8 002:477.293 - 3.962ms returns 1 (0x1)
T2BA8 002:480.045 JLINK_ReadMemEx(0x2000016C, 0x1 Bytes, Flags = 0x02000000)
T2BA8 002:480.080    -- Read from C cache (1 bytes @ 0x2000016C)
T2BA8 002:480.094   Data:  00
T2BA8 002:480.109 - 0.064ms returns 1 (0x1)
T2BA8 002:480.146 JLINK_ReadMemEx(0x2000016C, 0x1 Bytes, Flags = 0x02000000)
T2BA8 002:480.157    -- Read from C cache (1 bytes @ 0x2000016C)
T2BA8 002:480.171   Data:  00
T2BA8 002:480.184 - 0.038ms returns 1 (0x1)
T2BA8 002:485.969 JLINK_ReadMemEx(0x200002E8, 0xC Bytes, Flags = 0x02000000)
T2BA8 002:486.008   CPU_ReadMem(64 bytes @ 0x200002C0)
T2BA8 002:489.565    -- Updating C cache (64 bytes @ 0x200002C0)
T2BA8 002:489.598    -- Read from C cache (12 bytes @ 0x200002E8)
T2BA8 002:489.612   Data:  00 00 00 00 00 00 00 00 00 00 00 00
T2BA8 002:489.626 - 3.657ms returns 12 (0xC)
T1A04 002:525.268 JLINK_ReadMemEx(0x0800026C, 0x2 Bytes, Flags = 0x02000000)
T1A04 002:525.296    -- Read from C cache (2 bytes @ 0x0800026C)
T1A04 002:525.304   Data:  09 48
T1A04 002:525.312 - 0.044ms returns 2 (0x2)
T1A04 002:525.318 JLINK_HasError()
T1A04 002:525.326 JLINK_SetBPEx(Addr = 0x08002F6C, Type = 0xFFFFFFF2)
T1A04 002:525.334 - 0.007ms returns 0x00000001
T1A04 002:525.339 JLINK_HasError()
T1A04 002:525.344 JLINK_HasError()
T1A04 002:525.350 JLINK_Go()
T1A04 002:525.361   CPU_WriteMem(4 bytes @ 0xE0002000)
T1A04 002:526.710   CPU_ReadMem(4 bytes @ 0xE0001000)
T1A04 002:527.971   CPU_WriteMem(4 bytes @ 0xE0002008)
T1A04 002:527.985   CPU_WriteMem(4 bytes @ 0xE000200C)
T1A04 002:527.992   CPU_WriteMem(4 bytes @ 0xE0002010)
T1A04 002:527.998   CPU_WriteMem(4 bytes @ 0xE0002014)
T1A04 002:528.005   CPU_WriteMem(4 bytes @ 0xE0002018)
T1A04 002:528.011   CPU_WriteMem(4 bytes @ 0xE000201C)
T1A04 002:534.897   CPU_WriteMem(4 bytes @ 0xE0001004)
T1A04 002:539.753   Memory map 'after startup completion point' is active
T1A04 002:539.774 - 14.424ms
T1A04 002:640.039 JLINK_HasError()
T1A04 002:640.072 JLINK_IsHalted()
T1A04 002:651.298 - 11.225ms returns TRUE
T1A04 002:651.322 JLINK_HasError()
T1A04 002:651.357 JLINK_Halt()
T1A04 002:651.381 - 0.024ms returns 0x00
T1A04 002:651.393 JLINK_IsHalted()
T1A04 002:651.404 - 0.010ms returns TRUE
T1A04 002:651.415 JLINK_IsHalted()
T1A04 002:651.429 - 0.013ms returns TRUE
T1A04 002:651.442 JLINK_IsHalted()
T1A04 002:651.451 - 0.008ms returns TRUE
T1A04 002:651.461 JLINK_HasError()
T1A04 002:651.473 JLINK_ReadReg(R15 (PC))
T1A04 002:651.485 - 0.012ms returns 0x08002F6C
T1A04 002:651.496 JLINK_ReadReg(XPSR)
T1A04 002:651.505 - 0.009ms returns 0x21000000
T1A04 002:651.520 JLINK_HasError()
T1A04 002:651.531 JLINK_ClrBPEx(BPHandle = 0x00000001)
T1A04 002:651.541 - 0.010ms returns 0x00
T1A04 002:651.551 JLINK_HasError()
T1A04 002:651.561 JLINK_HasError()
T1A04 002:651.572 JLINK_ReadMemU32(0xE000ED30, 0x1 Items)
T1A04 002:651.590   CPU_ReadMem(4 bytes @ 0xE000ED30)
T1A04 002:652.773   Data:  03 00 00 00
T1A04 002:652.788 - 1.215ms returns 1 (0x1)
T1A04 002:652.796 JLINK_ReadMemU32(0xE0001028, 0x1 Items)
T1A04 002:652.806   CPU_ReadMem(4 bytes @ 0xE0001028)
T1A04 002:653.972   Data:  00 00 00 00
T1A04 002:653.989   Debug reg: DWT_FUNC[0]
T1A04 002:653.996 - 1.200ms returns 1 (0x1)
T1A04 002:654.005 JLINK_ReadMemU32(0xE0001038, 0x1 Items)
T1A04 002:654.014   CPU_ReadMem(4 bytes @ 0xE0001038)
T1A04 002:655.195   Data:  00 02 00 00
T1A04 002:655.210   Debug reg: DWT_FUNC[1]
T1A04 002:655.218 - 1.212ms returns 1 (0x1)
T1A04 002:655.226 JLINK_ReadMemU32(0xE0001048, 0x1 Items)
T1A04 002:655.235   CPU_ReadMem(4 bytes @ 0xE0001048)
T1A04 002:656.452   Data:  00 00 00 00
T1A04 002:656.478   Debug reg: DWT_FUNC[2]
T1A04 002:656.490 - 1.264ms returns 1 (0x1)
T1A04 002:656.502 JLINK_ReadMemU32(0xE0001058, 0x1 Items)
T1A04 002:656.516   CPU_ReadMem(4 bytes @ 0xE0001058)
T1A04 002:657.674   Data:  00 00 00 00
T1A04 002:657.702   Debug reg: DWT_FUNC[3]
T1A04 002:657.717 - 1.214ms returns 1 (0x1)
T1A04 002:657.767 JLINK_HasError()
T1A04 002:657.780 JLINK_ReadReg(R0)
T1A04 002:657.794 - 0.012ms returns 0x20000B78
T1A04 002:657.805 JLINK_ReadReg(R1)
T1A04 002:657.816 - 0.010ms returns 0x20000D78
T1A04 002:657.828 JLINK_ReadReg(R2)
T1A04 002:657.838 - 0.009ms returns 0x20000D78
T1A04 002:657.849 JLINK_ReadReg(R3)
T1A04 002:657.859 - 0.009ms returns 0x20000D78
T1A04 002:657.871 JLINK_ReadReg(R4)
T1A04 002:657.880 - 0.009ms returns 0x00000000
T1A04 002:657.891 JLINK_ReadReg(R5)
T1A04 002:657.900 - 0.009ms returns 0x20000B14
T1A04 002:657.911 JLINK_ReadReg(R6)
T1A04 002:657.921 - 0.010ms returns 0x00000000
T1A04 002:657.931 JLINK_ReadReg(R7)
T1A04 002:657.941 - 0.009ms returns 0x00000000
T1A04 002:657.952 JLINK_ReadReg(R8)
T1A04 002:657.961 - 0.009ms returns 0x00000000
T1A04 002:657.972 JLINK_ReadReg(R9)
T1A04 002:657.982 - 0.009ms returns 0x00000000
T1A04 002:657.992 JLINK_ReadReg(R10)
T1A04 002:658.002 - 0.009ms returns 0x080035CC
T1A04 002:658.013 JLINK_ReadReg(R11)
T1A04 002:658.023 - 0.009ms returns 0x00000000
T1A04 002:658.034 JLINK_ReadReg(R12)
T1A04 002:658.044 - 0.010ms returns 0x20000B54
T1A04 002:658.055 JLINK_ReadReg(R13 (SP))
T1A04 002:658.064 - 0.009ms returns 0x20001178
T1A04 002:658.075 JLINK_ReadReg(R14)
T1A04 002:658.086 - 0.010ms returns 0x0800025B
T1A04 002:658.096 JLINK_ReadReg(R15 (PC))
T1A04 002:658.106 - 0.009ms returns 0x08002F6C
T1A04 002:658.116 JLINK_ReadReg(XPSR)
T1A04 002:658.126 - 0.009ms returns 0x21000000
T1A04 002:658.137 JLINK_ReadReg(MSP)
T1A04 002:658.146 - 0.009ms returns 0x20001178
T1A04 002:658.157 JLINK_ReadReg(PSP)
T1A04 002:658.166 - 0.009ms returns 0x00000000
T1A04 002:658.177 JLINK_ReadReg(CFBP)
T1A04 002:658.187 - 0.009ms returns 0x04000000
T1A04 002:658.197 JLINK_ReadReg(FPSCR)
T1A04 002:675.784 - 17.585ms returns 0x03000000
T1A04 002:675.804 JLINK_ReadReg(FPS0)
T1A04 002:675.812 - 0.008ms returns 0x00000000
T1A04 002:675.818 JLINK_ReadReg(FPS1)
T1A04 002:675.823 - 0.005ms returns 0x00000000
T1A04 002:675.829 JLINK_ReadReg(FPS2)
T1A04 002:675.836 - 0.006ms returns 0x00000000
T1A04 002:675.841 JLINK_ReadReg(FPS3)
T1A04 002:675.846 - 0.005ms returns 0x00000000
T1A04 002:675.852 JLINK_ReadReg(FPS4)
T1A04 002:675.857 - 0.005ms returns 0x00000000
T1A04 002:675.862 JLINK_ReadReg(FPS5)
T1A04 002:675.867 - 0.005ms returns 0x00000000
T1A04 002:675.873 JLINK_ReadReg(FPS6)
T1A04 002:675.882 - 0.008ms returns 0x00000000
T1A04 002:675.887 JLINK_ReadReg(FPS7)
T1A04 002:675.892 - 0.004ms returns 0x00000000
T1A04 002:675.897 JLINK_ReadReg(FPS8)
T1A04 002:675.902 - 0.005ms returns 0x00000000
T1A04 002:675.908 JLINK_ReadReg(FPS9)
T1A04 002:675.912 - 0.004ms returns 0x00000000
T1A04 002:675.918 JLINK_ReadReg(FPS10)
T1A04 002:675.923 - 0.005ms returns 0x00000000
T1A04 002:675.928 JLINK_ReadReg(FPS11)
T1A04 002:675.935 - 0.006ms returns 0x00000000
T1A04 002:675.940 JLINK_ReadReg(FPS12)
T1A04 002:675.946 - 0.005ms returns 0x00000000
T1A04 002:675.952 JLINK_ReadReg(FPS13)
T1A04 002:675.956 - 0.004ms returns 0x00000000
T1A04 002:675.962 JLINK_ReadReg(FPS14)
T1A04 002:675.966 - 0.004ms returns 0x00000000
T1A04 002:675.972 JLINK_ReadReg(FPS15)
T1A04 002:675.977 - 0.005ms returns 0x00000000
T1A04 002:675.983 JLINK_ReadReg(FPS16)
T1A04 002:675.988 - 0.004ms returns 0x00000000
T1A04 002:675.993 JLINK_ReadReg(FPS17)
T1A04 002:675.998 - 0.004ms returns 0x00000000
T1A04 002:676.004 JLINK_ReadReg(FPS18)
T1A04 002:676.008 - 0.004ms returns 0x00000000
T1A04 002:676.014 JLINK_ReadReg(FPS19)
T1A04 002:676.019 - 0.005ms returns 0x00000000
T1A04 002:676.025 JLINK_ReadReg(FPS20)
T1A04 002:676.029 - 0.004ms returns 0x00000000
T1A04 002:676.035 JLINK_ReadReg(FPS21)
T1A04 002:676.040 - 0.004ms returns 0x00000000
T1A04 002:676.045 JLINK_ReadReg(FPS22)
T1A04 002:676.050 - 0.004ms returns 0x00000000
T1A04 002:676.055 JLINK_ReadReg(FPS23)
T1A04 002:676.060 - 0.005ms returns 0x00000000
T1A04 002:676.066 JLINK_ReadReg(FPS24)
T1A04 002:676.072 - 0.005ms returns 0x00000000
T1A04 002:676.077 JLINK_ReadReg(FPS25)
T1A04 002:676.082 - 0.005ms returns 0x00000000
T1A04 002:676.088 JLINK_ReadReg(FPS26)
T1A04 002:676.093 - 0.005ms returns 0x00000000
T1A04 002:676.098 JLINK_ReadReg(FPS27)
T1A04 002:676.103 - 0.004ms returns 0x00000000
T1A04 002:676.109 JLINK_ReadReg(FPS28)
T1A04 002:676.115 - 0.006ms returns 0x00000000
T1A04 002:676.120 JLINK_ReadReg(FPS29)
T1A04 002:676.126 - 0.005ms returns 0x00000000
T1A04 002:676.133 JLINK_ReadReg(FPS30)
T1A04 002:676.138 - 0.005ms returns 0x00000000
T1A04 002:676.144 JLINK_ReadReg(FPS31)
T1A04 002:676.149 - 0.004ms returns 0x00000000
T2BA8 002:677.756 JLINK_ReadMemEx(0x20000489, 0x20 Bytes, Flags = 0x02000000)
T2BA8 002:677.784   CPU_ReadMem(64 bytes @ 0x20000480)
T2BA8 002:681.220    -- Updating C cache (64 bytes @ 0x20000480)
T2BA8 002:681.234    -- Read from C cache (32 bytes @ 0x20000489)
T2BA8 002:681.242   Data:  00 00 00 00 00 00 00 00 00 00 00 00 00 00 00 00 ...
T2BA8 002:681.251 - 3.494ms returns 32 (0x20)
T2BA8 002:681.993 JLINK_ReadMemEx(0x20000184, 0x4 Bytes, Flags = 0x02000000)
T2BA8 002:682.010   CPU_ReadMem(64 bytes @ 0x20000180)
T2BA8 002:685.434    -- Updating C cache (64 bytes @ 0x20000180)
T2BA8 002:685.444    -- Read from C cache (4 bytes @ 0x20000184)
T2BA8 002:685.451   Data:  00 00 00 00
T2BA8 002:685.459 - 3.466ms returns 4 (0x4)
T2BA8 002:685.642 JLINK_ReadMemEx(0x20000188, 0x4 Bytes, Flags = 0x02000000)
T2BA8 002:685.652    -- Read from C cache (4 bytes @ 0x20000188)
T2BA8 002:685.660   Data:  00 00 00 00
T2BA8 002:685.667 - 0.025ms returns 4 (0x4)
T2BA8 002:685.786 JLINK_ReadMemEx(0x2000018C, 0x4 Bytes, Flags = 0x02000000)
T2BA8 002:685.793    -- Read from C cache (4 bytes @ 0x2000018C)
T2BA8 002:685.800   Data:  00 00 00 00
T2BA8 002:685.808 - 0.021ms returns 4 (0x4)
T2BA8 002:688.095 JLINK_ReadMemEx(0x08002F6C, 0x3C Bytes, Flags = 0x02000000)
T2BA8 002:688.120   CPU_ReadMem(128 bytes @ 0x08002F40)
T2BA8 002:694.090    -- Updating C cache (128 bytes @ 0x08002F40)
T2BA8 002:694.106    -- Read from C cache (60 bytes @ 0x08002F6C)
T2BA8 002:694.115   Data:  4F F4 80 60 FE F7 F6 FA FF F7 0A FD 00 BF FE E7 ...
T2BA8 002:694.122 - 6.027ms returns 60 (0x3C)
T2BA8 002:694.131 JLINK_ReadMemEx(0x08002F6C, 0x2 Bytes, Flags = 0x02000000)
T2BA8 002:694.137    -- Read from C cache (2 bytes @ 0x08002F6C)
T2BA8 002:694.144   Data:  4F F4
T2BA8 002:694.152 - 0.021ms returns 2 (0x2)
T2BA8 002:694.195 JLINK_ReadMemEx(0x08002F6E, 0x2 Bytes, Flags = 0x02000000)
T2BA8 002:694.202    -- Read from C cache (2 bytes @ 0x08002F6E)
T2BA8 002:694.209   Data:  80 60
T2BA8 002:694.216 - 0.021ms returns 2 (0x2)
T2BA8 002:694.230 JLINK_ReadMemEx(0x08002F70, 0x3C Bytes, Flags = 0x02000000)
T2BA8 002:694.235    -- Read from C cache (60 bytes @ 0x08002F70)
T2BA8 002:694.242   Data:  FE F7 F6 FA FF F7 0A FD 00 BF FE E7 2D E9 F0 4F ...
T2BA8 002:694.249 - 0.020ms returns 60 (0x3C)
T2BA8 002:694.255 JLINK_ReadMemEx(0x08002F70, 0x2 Bytes, Flags = 0x02000000)
T2BA8 002:694.260    -- Read from C cache (2 bytes @ 0x08002F70)
T2BA8 002:694.267   Data:  FE F7
T2BA8 002:694.274 - 0.018ms returns 2 (0x2)
T2BA8 002:694.279 JLINK_ReadMemEx(0x08002F72, 0x2 Bytes, Flags = 0x02000000)
T2BA8 002:694.284    -- Read from C cache (2 bytes @ 0x08002F72)
T2BA8 002:694.291   Data:  F6 FA
T2BA8 002:694.298 - 0.019ms returns 2 (0x2)
T2BA8 005:570.553 JLINK_ReadMemEx(0x08002F4E, 0x2 Bytes, Flags = 0x02000000)
T2BA8 005:570.655    -- Read from C cache (2 bytes @ 0x08002F4E)
T2BA8 005:570.664   Data:  70 47
T2BA8 005:570.672 - 0.119ms returns 2 (0x2)
T2BA8 005:570.681 JLINK_ReadMemEx(0x08002F50, 0x3C Bytes, Flags = 0x02000000)
T2BA8 005:570.687    -- Read from C cache (60 bytes @ 0x08002F50)
T2BA8 005:570.694   Data:  7E 01 00 20 0A D7 23 3C 84 01 00 20 82 01 00 20 ...
T2BA8 005:570.701 - 0.019ms returns 60 (0x3C)
T2BA8 005:570.707 JLINK_ReadMemEx(0x08002F50, 0x2 Bytes, Flags = 0x02000000)
T2BA8 005:570.712    -- Read from C cache (2 bytes @ 0x08002F50)
T2BA8 005:570.719   Data:  7E 01
T2BA8 005:570.726 - 0.018ms returns 2 (0x2)
T2BA8 005:570.755 JLINK_ReadMemEx(0x08002F50, 0x3C Bytes, Flags = 0x02000000)
T2BA8 005:570.761    -- Read from C cache (60 bytes @ 0x08002F50)
T2BA8 005:570.768   Data:  7E 01 00 20 0A D7 23 3C 84 01 00 20 82 01 00 20 ...
T2BA8 005:570.775 - 0.019ms returns 60 (0x3C)
T2BA8 005:570.781 JLINK_ReadMemEx(0x08002F50, 0x2 Bytes, Flags = 0x02000000)
T2BA8 005:570.785    -- Read from C cache (2 bytes @ 0x08002F50)
T2BA8 005:570.793   Data:  7E 01
T2BA8 005:570.799 - 0.019ms returns 2 (0x2)
T2BA8 005:570.805 JLINK_ReadMemEx(0x08002F52, 0x2 Bytes, Flags = 0x02000000)
T2BA8 005:570.810    -- Read from C cache (2 bytes @ 0x08002F52)
T2BA8 005:570.817   Data:  00 20
T2BA8 005:570.824 - 0.019ms returns 2 (0x2)
T2BA8 005:570.833 JLINK_ReadMemEx(0x08002F52, 0x2 Bytes, Flags = 0x02000000)
T2BA8 005:570.838    -- Read from C cache (2 bytes @ 0x08002F52)
T2BA8 005:570.845   Data:  00 20
T2BA8 005:570.852 - 0.019ms returns 2 (0x2)
T2BA8 005:570.857 JLINK_ReadMemEx(0x08002F54, 0x3C Bytes, Flags = 0x02000000)
T2BA8 005:570.863    -- Read from C cache (60 bytes @ 0x08002F54)
T2BA8 005:570.870   Data:  0A D7 23 3C 84 01 00 20 82 01 00 20 8C 01 00 20 ...
T2BA8 005:570.877 - 0.019ms returns 60 (0x3C)
T2BA8 005:570.883 JLINK_ReadMemEx(0x08002F54, 0x2 Bytes, Flags = 0x02000000)
T2BA8 005:570.888    -- Read from C cache (2 bytes @ 0x08002F54)
T2BA8 005:570.895   Data:  0A D7
T2BA8 005:570.901 - 0.019ms returns 2 (0x2)
T2BA8 005:570.909 JLINK_ReadMemEx(0x08002F54, 0x3C Bytes, Flags = 0x02000000)
T2BA8 005:570.915    -- Read from C cache (60 bytes @ 0x08002F54)
T2BA8 005:570.922   Data:  0A D7 23 3C 84 01 00 20 82 01 00 20 8C 01 00 20 ...
T2BA8 005:570.929 - 0.019ms returns 60 (0x3C)
T2BA8 005:570.934 JLINK_ReadMemEx(0x08002F54, 0x2 Bytes, Flags = 0x02000000)
T2BA8 005:570.939    -- Read from C cache (2 bytes @ 0x08002F54)
T2BA8 005:570.946   Data:  0A D7
T2BA8 005:570.953 - 0.019ms returns 2 (0x2)
T2BA8 005:570.959 JLINK_ReadMemEx(0x08002F56, 0x2 Bytes, Flags = 0x02000000)
T2BA8 005:570.964    -- Read from C cache (2 bytes @ 0x08002F56)
T2BA8 005:570.971   Data:  23 3C
T2BA8 005:570.978 - 0.019ms returns 2 (0x2)
T1A04 009:000.786 JLINK_ReadMemEx(0x08002F6C, 0x2 Bytes, Flags = 0x02000000)
T1A04 009:000.828    -- Read from C cache (2 bytes @ 0x08002F6C)
T1A04 009:000.842   Data:  4F F4
T1A04 009:000.856 - 0.070ms returns 2 (0x2)
T1A04 009:000.867 JLINK_HasError()
T1A04 009:000.881 JLINK_SetBPEx(Addr = 0x08002F32, Type = 0xFFFFFFF2)
T1A04 009:000.898 - 0.018ms returns 0x00000002
T1A04 009:000.908 JLINK_HasError()
T1A04 009:000.918 JLINK_HasError()
T1A04 009:000.927 JLINK_Go()
T1A04 009:002.230   CPU_WriteMem(4 bytes @ 0xE0002000)
T1A04 009:003.579   CPU_ReadMem(4 bytes @ 0xE0001000)
T1A04 009:004.896   CPU_WriteMem(4 bytes @ 0xE0002008)
T1A04 009:007.902 - 6.973ms
T1A04 009:108.396 JLINK_HasError()
T1A04 009:108.488 JLINK_IsHalted()
T1A04 009:120.221 - 11.731ms returns TRUE
T1A04 009:120.286 JLINK_HasError()
T1A04 009:120.307 JLINK_Halt()
T1A04 009:120.325 - 0.016ms returns 0x00
T1A04 009:120.344 JLINK_IsHalted()
T1A04 009:120.361 - 0.017ms returns TRUE
T1A04 009:120.473 JLINK_IsHalted()
T1A04 009:120.491 - 0.018ms returns TRUE
T1A04 009:120.509 JLINK_IsHalted()
T1A04 009:120.523 - 0.014ms returns TRUE
T1A04 009:120.542 JLINK_HasError()
T1A04 009:120.561 JLINK_ReadReg(R15 (PC))
T1A04 009:120.581 - 0.020ms returns 0x08002F32
T1A04 009:120.598 JLINK_ReadReg(XPSR)
T1A04 009:120.614 - 0.015ms returns 0x21000057
T1A04 009:120.639 JLINK_HasError()
T1A04 009:120.658 JLINK_ClrBPEx(BPHandle = 0x00000002)
T1A04 009:120.674 - 0.017ms returns 0x00
T1A04 009:120.691 JLINK_HasError()
T1A04 009:120.708 JLINK_HasError()
T1A04 009:120.726 JLINK_ReadMemU32(0xE000ED30, 0x1 Items)
T1A04 009:120.755   CPU_ReadMem(4 bytes @ 0xE000ED30)
T1A04 009:122.237   Data:  03 00 00 00
T1A04 009:122.260 - 1.534ms returns 1 (0x1)
T1A04 009:122.278 JLINK_ReadMemU32(0xE0001028, 0x1 Items)
T1A04 009:122.297   CPU_ReadMem(4 bytes @ 0xE0001028)
T1A04 009:123.782   Data:  00 00 00 00
T1A04 009:123.809   Debug reg: DWT_FUNC[0]
T1A04 009:123.833 - 1.554ms returns 1 (0x1)
T1A04 009:123.854 JLINK_ReadMemU32(0xE0001038, 0x1 Items)
T1A04 009:123.874   CPU_ReadMem(4 bytes @ 0xE0001038)
T1A04 009:125.364   Data:  00 02 00 00
T1A04 009:125.394   Debug reg: DWT_FUNC[1]
T1A04 009:125.419 - 1.565ms returns 1 (0x1)
T1A04 009:125.442 JLINK_ReadMemU32(0xE0001048, 0x1 Items)
T1A04 009:125.462   CPU_ReadMem(4 bytes @ 0xE0001048)
T1A04 009:126.932   Data:  00 00 00 00
T1A04 009:126.963   Debug reg: DWT_FUNC[2]
T1A04 009:126.991 - 1.550ms returns 1 (0x1)
T1A04 009:127.016 JLINK_ReadMemU32(0xE0001058, 0x1 Items)
T1A04 009:127.039   CPU_ReadMem(4 bytes @ 0xE0001058)
T1A04 009:128.562   Data:  00 00 00 00
T1A04 009:128.602   Debug reg: DWT_FUNC[3]
T1A04 009:128.637 - 1.620ms returns 1 (0x1)
T1A04 009:128.765 JLINK_HasError()
T1A04 009:128.794 JLINK_ReadReg(R0)
T1A04 009:128.821 - 0.026ms returns 0x20000489
T1A04 009:128.850 JLINK_ReadReg(R1)
T1A04 009:128.874 - 0.024ms returns 0x00005B3E
T1A04 009:128.902 JLINK_ReadReg(R2)
T1A04 009:128.926 - 0.024ms returns 0x20000180
T1A04 009:128.954 JLINK_ReadReg(R3)
T1A04 009:128.979 - 0.024ms returns 0x20000489
T1A04 009:129.006 JLINK_ReadReg(R4)
T1A04 009:129.031 - 0.024ms returns 0x00000000
T1A04 009:129.058 JLINK_ReadReg(R5)
T1A04 009:129.083 - 0.024ms returns 0x20000B14
T1A04 009:129.110 JLINK_ReadReg(R6)
T1A04 009:129.135 - 0.024ms returns 0x00000000
T1A04 009:129.162 JLINK_ReadReg(R7)
T1A04 009:129.215 - 0.052ms returns 0x00000000
T1A04 009:129.243 JLINK_ReadReg(R8)
T1A04 009:129.268 - 0.024ms returns 0x00000000
T1A04 009:129.296 JLINK_ReadReg(R9)
T1A04 009:129.322 - 0.024ms returns 0x00000000
T1A04 009:129.350 JLINK_ReadReg(R10)
T1A04 009:129.375 - 0.025ms returns 0x080035CC
T1A04 009:129.403 JLINK_ReadReg(R11)
T1A04 009:129.428 - 0.024ms returns 0x00000000
T1A04 009:129.455 JLINK_ReadReg(R12)
T1A04 009:129.480 - 0.024ms returns 0x00000150
T1A04 009:129.507 JLINK_ReadReg(R13 (SP))
T1A04 009:129.534 - 0.026ms returns 0x20001108
T1A04 009:129.562 JLINK_ReadReg(R14)
T1A04 009:129.586 - 0.024ms returns 0x08002947
T1A04 009:129.614 JLINK_ReadReg(R15 (PC))
T1A04 009:129.640 - 0.026ms returns 0x08002F32
T1A04 009:129.669 JLINK_ReadReg(XPSR)
T1A04 009:129.702 - 0.032ms returns 0x21000057
T1A04 009:129.730 JLINK_ReadReg(MSP)
T1A04 009:129.754 - 0.024ms returns 0x20001108
T1A04 009:129.782 JLINK_ReadReg(PSP)
T1A04 009:129.807 - 0.024ms returns 0x00000000
T1A04 009:129.854 JLINK_ReadReg(CFBP)
T1A04 009:129.880 - 0.025ms returns 0x04000000
T1A04 009:129.908 JLINK_ReadReg(FPSCR)
T1A04 009:148.282 - 18.368ms returns 0x00000010
T1A04 009:148.382 JLINK_ReadReg(FPS0)
T1A04 009:148.420 - 0.037ms returns 0x41DC3D70
T1A04 009:148.453 JLINK_ReadReg(FPS1)
T1A04 009:148.482 - 0.029ms returns 0x3C23D70A
T1A04 009:148.684 JLINK_ReadReg(FPS2)
T1A04 009:148.805 - 0.120ms returns 0x00000000
T1A04 009:148.840 JLINK_ReadReg(FPS3)
T1A04 009:148.866 - 0.025ms returns 0x00000000
T1A04 009:148.894 JLINK_ReadReg(FPS4)
T1A04 009:148.919 - 0.025ms returns 0x00000000
T1A04 009:148.947 JLINK_ReadReg(FPS5)
T1A04 009:148.972 - 0.024ms returns 0x00000000
T1A04 009:148.999 JLINK_ReadReg(FPS6)
T1A04 009:149.024 - 0.024ms returns 0x00000000
T1A04 009:149.052 JLINK_ReadReg(FPS7)
T1A04 009:149.105 - 0.025ms returns 0x00000000
T1A04 009:149.135 JLINK_ReadReg(FPS8)
T1A04 009:149.160 - 0.024ms returns 0x00000000
T1A04 009:149.188 JLINK_ReadReg(FPS9)
T1A04 009:149.213 - 0.024ms returns 0x00000000
T1A04 009:149.241 JLINK_ReadReg(FPS10)
T1A04 009:149.266 - 0.024ms returns 0x00000000
T1A04 009:149.293 JLINK_ReadReg(FPS11)
T1A04 009:149.318 - 0.025ms returns 0x00000000
T1A04 009:149.346 JLINK_ReadReg(FPS12)
T1A04 009:149.371 - 0.024ms returns 0x00000000
T1A04 009:149.398 JLINK_ReadReg(FPS13)
T1A04 009:149.423 - 0.024ms returns 0x00000000
T1A04 009:149.451 JLINK_ReadReg(FPS14)
T1A04 009:149.475 - 0.023ms returns 0x00000000
T1A04 009:149.499 JLINK_ReadReg(FPS15)
T1A04 009:149.522 - 0.022ms returns 0x00000000
T1A04 009:149.546 JLINK_ReadReg(FPS16)
T1A04 009:149.568 - 0.021ms returns 0x00000000
T1A04 009:149.592 JLINK_ReadReg(FPS17)
T1A04 009:149.615 - 0.023ms returns 0x00000000
T1A04 009:149.640 JLINK_ReadReg(FPS18)
T1A04 009:149.662 - 0.022ms returns 0x00000000
T1A04 009:149.686 JLINK_ReadReg(FPS19)
T1A04 009:149.708 - 0.021ms returns 0x00000000
T1A04 009:149.733 JLINK_ReadReg(FPS20)
T1A04 009:149.755 - 0.021ms returns 0x00000000
T1A04 009:149.779 JLINK_ReadReg(FPS21)
T1A04 009:149.802 - 0.021ms returns 0x00000000
T1A04 009:149.826 JLINK_ReadReg(FPS22)
T1A04 009:149.849 - 0.022ms returns 0x00000000
T1A04 009:149.873 JLINK_ReadReg(FPS23)
T1A04 009:149.894 - 0.021ms returns 0x00000000
T1A04 009:149.919 JLINK_ReadReg(FPS24)
T1A04 009:149.941 - 0.021ms returns 0x00000000
T1A04 009:149.965 JLINK_ReadReg(FPS25)
T1A04 009:149.987 - 0.022ms returns 0x00000000
T1A04 009:150.011 JLINK_ReadReg(FPS26)
T1A04 009:150.034 - 0.021ms returns 0x00000000
T1A04 009:150.058 JLINK_ReadReg(FPS27)
T1A04 009:150.080 - 0.021ms returns 0x00000000
T1A04 009:150.105 JLINK_ReadReg(FPS28)
T1A04 009:150.128 - 0.022ms returns 0x00000000
T1A04 009:150.152 JLINK_ReadReg(FPS29)
T1A04 009:150.174 - 0.021ms returns 0x00000000
T1A04 009:150.198 JLINK_ReadReg(FPS30)
T1A04 009:150.221 - 0.021ms returns 0x00000000
T1A04 009:150.246 JLINK_ReadReg(FPS31)
T1A04 009:150.267 - 0.021ms returns 0x00000000
T2BA8 009:151.590 JLINK_ReadMemEx(0x2000110C, 0x4 Bytes, Flags = 0x02000000)
T2BA8 009:151.673   CPU_ReadMem(64 bytes @ 0x20001100)
T2BA8 009:155.306    -- Updating C cache (64 bytes @ 0x20001100)
T2BA8 009:155.347    -- Read from C cache (4 bytes @ 0x2000110C)
T2BA8 009:155.369   Data:  E9 FF FF FF
T2BA8 009:155.390 - 3.802ms returns 4 (0x4)
T2BA8 009:155.417 JLINK_ReadMemEx(0x20001128, 0x4 Bytes, Flags = 0x02000000)
T2BA8 009:155.437    -- Read from C cache (4 bytes @ 0x20001128)
T2BA8 009:155.458   Data:  7A 2F 00 08
T2BA8 009:155.478 - 0.061ms returns 4 (0x4)
T2BA8 009:155.494 JLINK_ReadMemEx(0x2000112C, 0x4 Bytes, Flags = 0x02000000)
T2BA8 009:155.510    -- Read from C cache (4 bytes @ 0x2000112C)
T2BA8 009:155.530   Data:  00 00 00 21
T2BA8 009:155.550 - 0.056ms returns 4 (0x4)
T2BA8 009:155.566 JLINK_ReadMemEx(0x20001124, 0x4 Bytes, Flags = 0x02000000)
T2BA8 009:155.582    -- Read from C cache (4 bytes @ 0x20001124)
T2BA8 009:155.602   Data:  3D 2B 00 08
T2BA8 009:155.622 - 0.055ms returns 4 (0x4)
T2BA8 009:155.638 JLINK_ReadMemEx(0xE000ED28, 0x4 Bytes, Flags = 0x02000000)
T2BA8 009:155.664   CPU_ReadMem(4 bytes @ 0xE000ED28)
T2BA8 009:156.913   Data:  00 00 00 00
T2BA8 009:156.938 - 1.300ms returns 4 (0x4)
T2BA8 009:156.964 JLINK_ReadMemEx(0x20001174, 0x4 Bytes, Flags = 0x02000000)
T2BA8 009:156.984   CPU_ReadMem(64 bytes @ 0x20001140)
T2BA8 009:160.570    -- Updating C cache (64 bytes @ 0x20001140)
T2BA8 009:160.660    -- Read from C cache (4 bytes @ 0x20001174)
T2BA8 009:160.696   Data:  79 2F 00 08
T2BA8 009:160.733 - 3.768ms returns 4 (0x4)
T2BA8 009:160.782 JLINK_ReadMemEx(0x20001178, 0x4 Bytes, Flags = 0x02000000)
T2BA8 009:160.828    -- Read from C cache (4 bytes @ 0x20001178)
T2BA8 009:160.860   Data:  D7 42 F6 B2
T2BA8 009:160.892 - 0.110ms returns 4 (0x4)
T2BA8 009:161.042 JLINK_ReadMemEx(0x20000489, 0x20 Bytes, Flags = 0x02000000)
T2BA8 009:161.078   CPU_ReadMem(64 bytes @ 0x20000480)
T2BA8 009:164.790    -- Updating C cache (64 bytes @ 0x20000480)
T2BA8 009:164.850    -- Read from C cache (32 bytes @ 0x20000489)
T2BA8 009:164.877   Data:  5A FE 79 3F 21 D3 5B 3E F7 6B 8B 3C 40 97 62 3A ...
T2BA8 009:164.903 - 3.861ms returns 32 (0x20)
T2BA8 009:168.387 JLINK_ReadMemEx(0x20000489, 0x20 Bytes, Flags = 0x02000000)
T2BA8 009:168.430    -- Read from C cache (32 bytes @ 0x20000489)
T2BA8 009:168.450   Data:  5A FE 79 3F 21 D3 5B 3E F7 6B 8B 3C 40 97 62 3A ...
T2BA8 009:168.471 - 0.085ms returns 32 (0x20)
T2BA8 009:168.517 JLINK_ReadMemEx(0x20000489, 0x20 Bytes, Flags = 0x02000000)
T2BA8 009:168.546    -- Read from C cache (32 bytes @ 0x20000489)
T2BA8 009:168.566   Data:  5A FE 79 3F 21 D3 5B 3E F7 6B 8B 3C 40 97 62 3A ...
T2BA8 009:168.585 - 0.068ms returns 32 (0x20)
T2BA8 009:179.759 JLINK_ReadMemEx(0x20000184, 0x4 Bytes, Flags = 0x02000000)
T2BA8 009:179.824   CPU_ReadMem(64 bytes @ 0x20000180)
T2BA8 009:183.397    -- Updating C cache (64 bytes @ 0x20000180)
T2BA8 009:183.451    -- Read from C cache (4 bytes @ 0x20000184)
T2BA8 009:183.475   Data:  EB 31 9B 43
T2BA8 009:183.500 - 3.741ms returns 4 (0x4)
T2BA8 009:185.498 JLINK_ReadMemEx(0x20000188, 0x4 Bytes, Flags = 0x02000000)
T2BA8 009:185.548    -- Read from C cache (4 bytes @ 0x20000188)
T2BA8 009:185.572   Data:  00 00 00 00
T2BA8 009:185.597 - 0.099ms returns 4 (0x4)
T2BA8 009:185.962 JLINK_ReadMemEx(0x2000018C, 0x4 Bytes, Flags = 0x02000000)
T2BA8 009:185.986    -- Read from C cache (4 bytes @ 0x2000018C)
T2BA8 009:186.009   Data:  70 3D DC 41
T2BA8 009:186.032 - 0.070ms returns 4 (0x4)
T2BA8 009:190.793 JLINK_ReadMemEx(0x08002F32, 0x2 Bytes, Flags = 0x02000000)
T2BA8 009:190.856   CPU_ReadMem(64 bytes @ 0x08002F00)
T2BA8 009:194.384    -- Updating C cache (64 bytes @ 0x08002F00)
T2BA8 009:194.443    -- Read from C cache (2 bytes @ 0x08002F32)
T2BA8 009:194.470   Data:  11 46
T2BA8 009:194.496 - 3.705ms returns 2 (0x2)
T2BA8 009:194.526 JLINK_ReadMemEx(0x08002F34, 0x3C Bytes, Flags = 0x02000000)
T2BA8 009:194.553   CPU_ReadMem(64 bytes @ 0x08002F40)
T2BA8 009:198.126    -- Updating C cache (64 bytes @ 0x08002F40)
T2BA8 009:198.178    -- Read from C cache (60 bytes @ 0x08002F34)
T2BA8 009:198.205   Data:  B1 F9 00 10 00 EE 10 1A B8 EE C0 0A DF ED 04 0A ...
T2BA8 009:198.244 - 3.718ms returns 60 (0x3C)
T2BA8 009:198.343 JLINK_ReadMemEx(0x08002F34, 0x2 Bytes, Flags = 0x02000000)
T2BA8 009:198.394    -- Read from C cache (2 bytes @ 0x08002F34)
T2BA8 009:198.418   Data:  B1 F9
T2BA8 009:198.444 - 0.102ms returns 2 (0x2)
T2BA8 009:198.487 JLINK_ReadMemEx(0x08002F34, 0x3C Bytes, Flags = 0x02000000)
T2BA8 009:198.505    -- Read from C cache (60 bytes @ 0x08002F34)
T2BA8 009:198.528   Data:  B1 F9 00 10 00 EE 10 1A B8 EE C0 0A DF ED 04 0A ...
T2BA8 009:198.550 - 0.063ms returns 60 (0x3C)
T2BA8 009:198.568 JLINK_ReadMemEx(0x08002F34, 0x2 Bytes, Flags = 0x02000000)
T2BA8 009:198.585    -- Read from C cache (2 bytes @ 0x08002F34)
T2BA8 009:198.608   Data:  B1 F9
T2BA8 009:198.631 - 0.064ms returns 2 (0x2)
T2BA8 009:198.651 JLINK_ReadMemEx(0x08002F36, 0x2 Bytes, Flags = 0x02000000)
T2BA8 009:198.669    -- Read from C cache (2 bytes @ 0x08002F36)
T2BA8 009:198.702   Data:  00 10
T2BA8 009:198.726 - 0.075ms returns 2 (0x2)
T2BA8 009:198.752 JLINK_ReadMemEx(0x08002F38, 0x3C Bytes, Flags = 0x02000000)
T2BA8 009:198.770    -- Read from C cache (60 bytes @ 0x08002F38)
T2BA8 009:198.815   Data:  00 EE 10 1A B8 EE C0 0A DF ED 04 0A 20 EE 20 0A ...
T2BA8 009:198.839 - 0.088ms returns 60 (0x3C)
T2BA8 009:198.859 JLINK_ReadMemEx(0x08002F38, 0x2 Bytes, Flags = 0x02000000)
T2BA8 009:198.876    -- Read from C cache (2 bytes @ 0x08002F38)
T2BA8 009:198.899   Data:  00 EE
T2BA8 009:198.923 - 0.065ms returns 2 (0x2)
T2BA8 009:198.942 JLINK_ReadMemEx(0x08002F3A, 0x2 Bytes, Flags = 0x02000000)
T2BA8 009:198.959    -- Read from C cache (2 bytes @ 0x08002F3A)
T2BA8 009:198.982   Data:  10 1A
T2BA8 009:199.006 - 0.063ms returns 2 (0x2)
T1A04 013:470.104 JLINK_ReadMemEx(0x08002F32, 0x2 Bytes, Flags = 0x02000000)
T1A04 013:470.150    -- Read from C cache (2 bytes @ 0x08002F32)
T1A04 013:470.165   Data:  11 46
T1A04 013:470.179 - 0.075ms returns 2 (0x2)
T1A04 013:470.190 JLINK_HasError()
T1A04 013:470.203 JLINK_HasError()
T1A04 013:470.213 JLINK_Go()
T1A04 013:471.520   CPU_ReadMem(4 bytes @ 0xE0001000)
T1A04 013:472.894   CPU_WriteMem(4 bytes @ 0xE0002008)
T1A04 013:476.195 - 5.981ms
T1A04 013:577.230 JLINK_HasError()
T1A04 013:577.307 JLINK_IsHalted()
T1A04 013:578.710 - 1.401ms returns FALSE
T1A04 013:679.258 JLINK_HasError()
T1A04 013:679.362 JLINK_IsHalted()
T1A04 013:680.925 - 1.559ms returns FALSE
T1A04 013:782.070 JLINK_HasError()
T1A04 013:782.112 JLINK_IsHalted()
T1A04 013:783.304 - 1.191ms returns FALSE
T1A04 013:883.802 JLINK_HasError()
T1A04 013:883.845 JLINK_IsHalted()
T1A04 013:884.994 - 1.148ms returns FALSE
T1A04 013:986.138 JLINK_HasError()
T1A04 013:986.213 JLINK_HasError()
